  vcan0  100   [8]  01 3E 32 00 FA 00 00 00
  vcan0  100   [8]  01 3F 32 00 FE 00 00 00
  vcan0  100   [8]  01 40 32 01 03 00 00 00
  vcan0  100   [8]  01 42 33 01 08 00 00 00
  vcan0  100   [8]  01 43 33 01 0D 00 00 00
  vcan0  100   [8]  01 44 34 01 12 00 00 00
  vcan0  100   [8]  01 45 34 01 17 00 00 00
  vcan0  100   [8]  01 47 35 01 1C 00 00 00
  vcan0  100   [8]  01 48 35 01 20 00 00 00
  vcan0  100   [8]  01 49 36 01 25 00 00 00
  vcan0  100   [8]  01 4A 36 01 29 00 00 00
  vcan0  100   [8]  01 4B 37 01 2E 00 00 00
  vcan0  100   [8]  01 4C 37 01 32 00 00 00
  vcan0  100   [8]  01 4D 38 01 36 00 00 00
  vcan0  100   [8]  01 4E 38 01 3A 00 00 00
  vcan0  100   [8]  01 4F 38 01 3E 00 00 00
  vcan0  100   [8]  01 50 39 01 41 00 00 00
  vcan0  100   [8]  00 51 39 01 45 00 00 00
  vcan0  100   [8]  00 52 39 01 48 00 00 00
  vcan0  100   [8]  00 52 3A 01 4B 00 00 00
  vcan0  100   [8]  00 53 3A 01 4E 00 00 00
  vcan0  100   [8]  00 54 3A 01 50 00 00 00
  vcan0  100   [8]  00 54 3A 01 53 00 00 00
  vcan0  100   [8]  00 55 3B 01 55 00 00 00
  vcan0  100   [8]  00 55 3B 01 57 00 00 00
  vcan0  100   [8]  00 56 3B 01 58 00 00 00
  vcan0  100   [8]  00 56 3B 01 5A 00 00 00
  vcan0  100   [8]  00 56 3B 01 5B 00 00 00
  vcan0  100   [8]  00 57 3B 01 5C 00 00 00
  vcan0  100   [8]  00 57 3B 01 5D 00 00 00
  vcan0  100   [8]  00 57 3B 01 5D 00 00 00
  vcan0  100   [8]  00 57 3B 01 5D 00 00 00
  vcan0  100   [8]  00 57 3B 01 5D 00 00 00
  vcan0  100   [8]  00 57 3B 01 5D 00 00 00
  vcan0  100   [8]  00 57 3B 01 5D 00 00 00
  vcan0  100   [8]  00 57 3B 01 5C 00 00 00
  vcan0  100   [8]  00 56 3B 01 5B 00 00 00
  vcan0  100   [8]  00 56 3B 01 5A 00 00 00
  vcan0  100   [8]  00 56 3B 01 58 00 00 00
  vcan0  100   [8]  00 55 3B 01 56 00 00 00
  vcan0  100   [8]  00 55 3B 01 54 00 00 00
  vcan0  100   [8]  00 54 3A 01 52 00 00 00
  vcan0  100   [8]  00 54 3A 01 50 00 00 00
  vcan0  100   [8]  00 53 3A 01 4D 00 00 00
  vcan0  100   [8]  00 52 3A 01 4A 00 00 00
  vcan0  100   [8]  00 51 39 01 47 00 00 00
  vcan0  100   [8]  00 51 39 01 44 00 00 00
  vcan0  100   [8]  00 50 39 01 41 00 00 00
  vcan0  100   [8]  00 4F 38 01 3D 00 00 00
  vcan0  100   [8]  00 4E 38 01 39 00 00 00
  vcan0  100   [8]  00 4D 37 01 35 00 00 00
  vcan0  100   [8]  00 4C 37 01 31 00 00 00
  vcan0  100   [8]  00 4B 37 01 2D 00 00 00
  vcan0  100   [8]  00 4A 36 01 29 00 00 00
  vcan0  100   [8]  00 49 36 01 24 00 00 00
  vcan0  100   [8]  00 48 35 01 20 00 00 00
  vcan0  100   [8]  00 46 35 01 1B 00 00 00
  vcan0  100   [8]  00 45 34 01 16 00 00 00
  vcan0  100   [8]  01 44 34 01 11 00 00 00
  vcan0  100   [8]  01 43 33 01 0D 00 00 00
  vcan0  100   [8]  01 42 33 01 08 00 00 00
  vcan0  100   [8]  01 40 32 01 03 00 00 00
  vcan0  100   [8]  01 3F 32 00 FE 00 00 00
  vcan0  100   [8]  01 3E 31 00 F9 00 00 00
  vcan0  100   [8]  01 3D 31 00 F4 00 00 00
  vcan0  100   [8]  01 3B 30 00 EF 00 00 00
  vcan0  100   [8]  01 3A 30 00 EA 00 00 00
  vcan0  100   [8]  01 39 2F 00 E5 00 00 00
  vcan0  100   [8]  01 38 2F 00 E0 00 00 00
  vcan0  100   [8]  01 36 2E 00 DB 00 00 00
  vcan0  100   [8]  01 35 2E 00 D6 00 00 00
  vcan0  100   [8]  01 34 2E 00 D2 00 00 00
  vcan0  100   [8]  01 33 2D 00 CD 00 00 00
  vcan0  100   [8]  01 32 2D 00 C9 00 00 00
  vcan0  100   [8]  01 31 2C 00 C5 00 00 00
  vcan0  100   [8]  01 30 2C 00 C0 00 00 00
  vcan0  100   [8]  01 2F 2B 00 BC 00 00 00
  vcan0  100   [8]  01 2E 2B 00 B8 00 00 00
  vcan0  100   [8]  01 2D 2B 00 B5 00 00 00
  vcan0  100   [8]  01 2C 2A 00 B1 00 00 00
  vcan0  100   [8]  01 2B 2A 00 AE 00 00 00
  vcan0  100   [8]  01 2A 2A 00 AB 00 00 00
  vcan0  100   [8]  01 2A 29 00 A8 00 00 00
  vcan0  100   [8]  01 29 29 00 A5 00 00 00
  vcan0  100   [8]  01 28 29 00 A2 00 00 00
  vcan0  100   [8]  01 28 29 00 A0 00 00 00
  vcan0  100   [8]  01 27 28 00 9E 00 00 00
  vcan0  100   [8]  01 27 28 00 9C 00 00 00
  vcan0  100   [8]  01 26 28 00 9A 00 00 00
  vcan0  100   [8]  01 26 28 00 99 00 00 00
  vcan0  100   [8]  01 26 28 00 98 00 00 00
  vcan0  100   [8]  01 25 28 00 97 00 00 00
  vcan0  100   [8]  01 25 28 00 96 00 00 00
  vcan0  100   [8]  01 25 28 00 96 00 00 00
  vcan0  100   [8]  01 25 28 00 96 00 00 00
  vcan0  100   [8]  01 25 28 00 96 00 00 00
  vcan0  100   [8]  01 25 28 00 96 00 00 00
  vcan0  100   [8]  01 25 28 00 96 00 00 00
  vcan0  100   [8]  01 25 28 00 97 00 00 00
  vcan0  100   [8]  01 26 28 00 98 00 00 00
  vcan0  100   [8]  01 26 28 00 9A 00 00 00
  vcan0  100   [8]  01 26 28 00 9B 00 00 00
  vcan0  100   [8]  01 27 28 00 9D 00 00 00
  vcan0  100   [8]  01 27 28 00 9F 00 00 00
  vcan0  100   [8]  01 28 29 00 A1 00 00 00
  vcan0  100   [8]  01 29 29 00 A4 00 00 00
  vcan0  100   [8]  01 29 29 00 A6 00 00 00
  vcan0  100   [8]  01 2A 29 00 A9 00 00 00
  vcan0  100   [8]  01 2B 2A 00 AC 00 00 00
  vcan0  100   [8]  01 2B 2A 00 AF 00 00 00
  vcan0  100   [8]  01 2C 2A 00 B3 00 00 00
  vcan0  100   [8]  01 2D 2B 00 B7 00 00 00
  vcan0  100   [8]  01 2E 2B 00 BA 00 00 00
  vcan0  100   [8]  01 2F 2C 00 BE 00 00 00
  vcan0  100   [8]  01 30 2C 00 C2 00 00 00
  vcan0  100   [8]  01 31 2C 00 C7 00 00 00
  vcan0  100   [8]  01 32 2D 00 CB 00 00 00
  vcan0  100   [8]  01 34 2D 00 D0 00 00 00
  vcan0  100   [8]  01 35 2E 00 D4 00 00 00
  vcan0  100   [8]  01 36 2E 00 D9 00 00 00
  vcan0  100   [8]  01 37 2F 00 DE 00 00 00
  vcan0  100   [8]  01 38 2F 00 E2 00 00 00
  vcan0  100   [8]  01 39 30 00 E7 00 00 00
  vcan0  100   [8]  01 3B 30 00 EC 00 00 00
  vcan0  100   [8]  01 3C 31 00 F1 00 00 00
  vcan0  100   [8]  01 3D 31 00 F6 00 00 00
  vcan0  100   [8]  01 3E 32 00 FB 00 00 00
  vcan0  100   [8]  01 40 32 01 00 00 00 00
  vcan0  100   [8]  01 41 33 01 05 00 00 00
  vcan0  100   [8]  01 42 33 01 0A 00 00 00
  vcan0  100   [8]  01 43 34 01 0F 00 00 00
  vcan0  100   [8]  01 45 34 01 14 00 00 00
  vcan0  100   [8]  01 46 35 01 19 00 00 00
  vcan0  100   [8]  01 47 35 01 1D 00 00 00
  vcan0  100   [8]  01 48 36 01 22 00 00 00
  vcan0  100   [8]  01 49 36 01 27 00 00 00
  vcan0  100   [8]  01 4A 36 01 2B 00 00 00
  vcan0  100   [8]  01 4B 37 01 2F 00 00 00
  vcan0  100   [8]  01 4C 37 01 33 00 00 00
  vcan0  100   [8]  01 4D 38 01 37 00 00 00
  vcan0  100   [8]  01 4E 38 01 3B 00 00 00
  vcan0  100   [8]  01 4F 38 01 3F 00 00 00
  vcan0  100   [8]  01 50 39 01 42 00 00 00
  vcan0  100   [8]  00 51 39 01 46 00 00 00
  vcan0  100   [8]  00 52 39 01 49 00 00 00
  vcan0  100   [8]  00 53 3A 01 4C 00 00 00
  vcan0  100   [8]  00 53 3A 01 4F 00 00 00
  vcan0  100   [8]  00 54 3A 01 51 00 00 00
  vcan0  100   [8]  00 54 3A 01 53 00 00 00
  vcan0  100   [8]  00 55 3B 01 55 00 00 00
  vcan0  100   [8]  00 55 3B 01 57 00 00 00
  vcan0  100   [8]  00 56 3B 01 59 00 00 00
  vcan0  100   [8]  00 56 3B 01 5A 00 00 00
  vcan0  100   [8]  00 56 3B 01 5B 00 00 00
  vcan0  100   [8]  00 57 3B 01 5C 00 00 00
  vcan0  100   [8]  00 57 3B 01 5D 00 00 00
  vcan0  100   [8]  00 57 3B 01 5D 00 00 00
  vcan0  100   [8]  00 57 3B 01 5D 00 00 00
  vcan0  100   [8]  00 57 3B 01 5D 00 00 00
  vcan0  100   [8]  00 57 3B 01 5D 00 00 00
  vcan0  100   [8]  00 57 3B 01 5C 00 00 00
  vcan0  100   [8]  00 57 3B 01 5C 00 00 00
  vcan0  100   [8]  00 56 3B 01 5A 00 00 00
  vcan0  100   [8]  00 56 3B 01 59 00 00 00
  vcan0  100   [8]  00 56 3B 01 58 00 00 00
  vcan0  100   [8]  00 55 3B 01 56 00 00 00
  vcan0  100   [8]  00 55 3B 01 54 00 00 00
  vcan0  100   [8]  00 54 3A 01 51 00 00 00
  vcan0  100   [8]  00 53 3A 01 4F 00 00 00
  vcan0  100   [8]  00 53 3A 01 4C 00 00 00
  vcan0  100   [8]  00 52 39 01 49 00 00 00
  vcan0  100   [8]  00 51 39 01 46 00 00 00
  vcan0  100   [8]  00 50 39 01 43 00 00 00
  vcan0  100   [8]  00 4F 38 01 3F 00 00 00
  vcan0  100   [8]  00 4F 38 01 3C 00 00 00
  vcan0  100   [8]  00 4E 38 01 38 00 00 00
  vcan0  100   [8]  00 4D 37 01 34 00 00 00
  vcan0  100   [8]  00 4C 37 01 30 00 00 00
  vcan0  100   [8]  00 4B 37 01 2C 00 00 00
  vcan0  100   [8]  00 49 36 01 27 00 00 00
  vcan0  100   [8]  00 48 36 01 23 00 00 00
  vcan0  100   [8]  00 47 35 01 1E 00 00 00
  vcan0  100   [8]  00 46 35 01 19 00 00 00
  vcan0  100   [8]  00 45 34 01 15 00 00 00
  vcan0  100   [8]  01 44 34 01 10 00 00 00
  vcan0  100   [8]  01 42 33 01 0B 00 00 00
  vcan0  100   [8]  01 41 33 01 06 00 00 00
  vcan0  100   [8]  01 40 32 01 01 00 00 00
  vcan0  100   [8]  01 3F 32 00 FC 00 00 00
  vcan0  100   [8]  01 3D 31 00 F7 00 00 00
  vcan0  100   [8]  01 3C 31 00 F2 00 00 00
  vcan0  100   [8]  01 3B 30 00 ED 00 00 00
  vcan0  100   [8]  01 3A 30 00 E8 00 00 00
  vcan0  100   [8]  01 38 2F 00 E3 00 00 00
  vcan0  100   [8]  01 37 2F 00 DE 00 00 00
  vcan0  100   [8]  01 36 2E 00 DA 00 00 00
  vcan0  100   [8]  01 35 2E 00 D5 00 00 00
  vcan0  100   [8]  01 34 2D 00 D0 00 00 00
  vcan0  100   [8]  01 33 2D 00 CC 00 00 00
  vcan0  100   [8]  01 31 2C 00 C7 00 00 00
  vcan0  100   [8]  01 30 2C 00 C3 00 00 00
  vcan0  100   [8]  01 2F 2C 00 BF 00 00 00
  vcan0  100   [8]  01 2E 2B 00 BB 00 00 00
  vcan0  100   [8]  01 2D 2B 00 B7 00 00 00
  vcan0  100   [8]  01 2D 2B 00 B4 00 00 00
  vcan0  100   [8]  01 2C 2A 00 B0 00 00 00
  vcan0  100   [8]  01 2B 2A 00 AD 00 00 00
  vcan0  100   [8]  01 2A 2A 00 AA 00 00 00
  vcan0  100   [8]  01 29 29 00 A7 00 00 00
  vcan0  100   [8]  01 29 29 00 A4 00 00 00
  vcan0  100   [8]  01 28 29 00 A2 00 00 00
  vcan0  100   [8]  01 27 28 00 9F 00 00 00
  vcan0  100   [8]  01 27 28 00 9D 00 00 00
  vcan0  100   [8]  01 26 28 00 9B 00 00 00
  vcan0  100   [8]  01 26 28 00 9A 00 00 00
  vcan0  100   [8]  01 26 28 00 99 00 00 00
  vcan0  100   [8]  01 25 28 00 97 00 00 00
  vcan0  100   [8]  01 25 28 00 97 00 00 00
  vcan0  100   [8]  01 25 28 00 96 00 00 00
  vcan0  100   [8]  01 25 28 00 96 00 00 00
  vcan0  100   [8]  01 25 28 00 96 00 00 00
  vcan0  100   [8]  01 25 28 00 96 00 00 00
  vcan0  100   [8]  01 25 28 00 96 00 00 00
  vcan0  100   [8]  01 25 28 00 97 00 00 00
  vcan0  100   [8]  01 26 28 00 98 00 00 00
  vcan0  100   [8]  01 26 28 00 99 00 00 00
  vcan0  100   [8]  01 26 28 00 9A 00 00 00
  vcan0  100   [8]  01 27 28 00 9C 00 00 00
  vcan0  100   [8]  01 27 28 00 9E 00 00 00
  vcan0  100   [8]  01 28 29 00 A0 00 00 00
  vcan0  100   [8]  01 28 29 00 A2 00 00 00
  vcan0  100   [8]  01 29 29 00 A4 00 00 00
  vcan0  100   [8]  01 29 29 00 A7 00 00 00
  vcan0  100   [8]  01 2A 2A 00 AA 00 00 00
  vcan0  100   [8]  01 2B 2A 00 AD 00 00 00
  vcan0  100   [8]  01 2C 2A 00 B1 00 00 00
  vcan0  100   [8]  01 2D 2B 00 B4 00 00 00
  vcan0  100   [8]  01 2E 2B 00 B8 00 00 00
  vcan0  100   [8]  01 2F 2B 00 BC 00 00 00
  vcan0  100   [8]  01 30 2C 00 C0 00 00 00
  vcan0  100   [8]  01 31 2C 00 C4 00 00 00
  vcan0  100   [8]  01 32 2D 00 C8 00 00 00
  vcan0  100   [8]  01 33 2D 00 CD 00 00 00
  vcan0  100   [8]  01 34 2D 00 D1 00 00 00
  vcan0  100   [8]  01 35 2E 00 D6 00 00 00
  vcan0  100   [8]  01 36 2E 00 DA 00 00 00
  vcan0  100   [8]  01 37 2F 00 DF 00 00 00
  vcan0  100   [8]  01 39 2F 00 E4 00 00 00
  vcan0  100   [8]  01 3A 30 00 E9 00 00 00
  vcan0  100   [8]  01 3B 30 00 EE 00 00 00
  vcan0  100   [8]  01 3C 31 00 F3 00 00 00
  vcan0  100   [8]  01 3E 31 00 F8 00 00 00
  vcan0  100   [8]  01 3F 32 00 FD 00 00 00
  vcan0  100   [8]  01 40 32 01 02 00 00 00
  vcan0  100   [8]  01 41 33 01 07 00 00 00
  vcan0  100   [8]  01 43 33 01 0C 00 00 00
  vcan0  100   [8]  01 44 34 01 11 00 00 00
  vcan0  100   [8]  01 45 34 01 15 00 00 00
  vcan0  100   [8]  01 46 35 01 1A 00 00 00
  vcan0  100   [8]  01 47 35 01 1F 00 00 00
  vcan0  100   [8]  01 49 36 01 24 00 00 00
  vcan0  100   [8]  01 4A 36 01 28 00 00 00
  vcan0  100   [8]  01 4B 37 01 2C 00 00 00
  vcan0  100   [8]  01 4C 37 01 31 00 00 00
  vcan0  100   [8]  01 4D 37 01 35 00 00 00
  vcan0  100   [8]  01 4E 38 01 39 00 00 00
  vcan0  100   [8]  01 4F 38 01 3C 00 00 00
  vcan0  100   [8]  01 50 39 01 40 00 00 00
  vcan0  100   [8]  01 51 39 01 44 00 00 00
  vcan0  100   [8]  00 51 39 01 47 00 00 00
  vcan0  100   [8]  00 52 3A 01 4A 00 00 00
  vcan0  100   [8]  00 53 3A 01 4D 00 00 00
  vcan0  100   [8]  00 53 3A 01 4F 00 00 00
  vcan0  100   [8]  00 54 3A 01 52 00 00 00
  vcan0  100   [8]  00 55 3B 01 54 00 00 00
  vcan0  100   [8]  00 55 3B 01 56 00 00 00
  vcan0  100   [8]  00 56 3B 01 58 00 00 00
  vcan0  100   [8]  00 56 3B 01 59 00 00 00
  vcan0  100   [8]  00 56 3B 01 5B 00 00 00
  vcan0  100   [8]  00 57 3B 01 5C 00 00 00
  vcan0  100   [8]  00 57 3B 01 5D 00 00 00
  vcan0  100   [8]  00 57 3B 01 5D 00 00 00
  vcan0  100   [8]  00 57 3B 01 5D 00 00 00
  vcan0  100   [8]  00 57 3B 01 5D 00 00 00
  vcan0  100   [8]  00 57 3B 01 5D 00 00 00
  vcan0  100   [8]  00 57 3B 01 5D 00 00 00
  vcan0  100   [8]  00 57 3B 01 5C 00 00 00
  vcan0  100   [8]  00 56 3B 01 5B 00 00 00
  vcan0  100   [8]  00 56 3B 01 5A 00 00 00
  vcan0  100   [8]  00 56 3B 01 59 00 00 00
  vcan0  100   [8]  00 55 3B 01 57 00 00 00
  vcan0  100   [8]  00 55 3B 01 55 00 00 00
  vcan0  100   [8]  00 54 3A 01 53 00 00 00
  vcan0  100   [8]  00 54 3A 01 51 00 00 00
  vcan0  100   [8]  00 53 3A 01 4E 00 00 00
  vcan0  100   [8]  00 52 3A 01 4B 00 00 00
  vcan0  100   [8]  00 52 39 01 48 00 00 00
  vcan0  100   [8]  00 51 39 01 45 00 00 00
  vcan0  100   [8]  00 50 39 01 42 00 00 00
  vcan0  100   [8]  00 4F 38 01 3E 00 00 00
  vcan0  100   [8]  00 4E 38 01 3B 00 00 00
  vcan0  100   [8]  00 4D 38 01 37 00 00 00
  vcan0  100   [8]  00 4C 37 01 33 00 00 00
  vcan0  100   [8]  00 4B 37 01 2E 00 00 00
  vcan0  100   [8]  00 4A 36 01 2A 00 00 00
  vcan0  100   [8]  00 49 36 01 26 00 00 00
  vcan0  100   [8]  00 48 35 01 21 00 00 00
  vcan0  100   [8]  00 47 35 01 1D 00 00 00
  vcan0  100   [8]  00 46 35 01 18 00 00 00
  vcan0  100   [8]  00 44 34 01 13 00 00 00
  vcan0  100   [8]  01 43 34 01 0E 00 00 00
  vcan0  100   [8]  01 42 33 01 09 00 00 00
  vcan0  100   [8]  01 41 33 01 04 00 00 00
  vcan0  100   [8]  01 3F 32 00 FF 00 00 00
  vcan0  100   [8]  01 3E 32 00 FA 00 00 00
  vcan0  100   [8]  01 3D 31 00 F5 00 00 00
  vcan0  100   [8]  01 3C 31 00 F0 00 00 00
  vcan0  100   [8]  01 3A 30 00 EB 00 00 00
  vcan0  100   [8]  01 39 30 00 E6 00 00 00
  vcan0  100   [8]  01 38 2F 00 E2 00 00 00
  vcan0  100   [8]  01 37 2F 00 DD 00 00 00
  vcan0  100   [8]  01 36 2E 00 D8 00 00 00
  vcan0  100   [8]  01 34 2E 00 D3 00 00 00
  vcan0  100   [8]  01 33 2D 00 CF 00 00 00
  vcan0  100   [8]  01 32 2D 00 CA 00 00 00
  vcan0  100   [8]  01 31 2C 00 C6 00 00 00
  vcan0  100   [8]  01 30 2C 00 C2 00 00 00
  vcan0  100   [8]  01 2F 2C 00 BE 00 00 00
  vcan0  100   [8]  01 2E 2B 00 BA 00 00 00
  vcan0  100   [8]  01 2D 2B 00 B6 00 00 00
  vcan0  100   [8]  01 2C 2A 00 B2 00 00 00
  vcan0  100   [8]  01 2B 2A 00 AF 00 00 00
  vcan0  100   [8]  01 2B 2A 00 AC 00 00 00
  vcan0  100   [8]  01 2A 29 00 A9 00 00 00
  vcan0  100   [8]  01 29 29 00 A6 00 00 00
  vcan0  100   [8]  01 28 29 00 A3 00 00 00
  vcan0  100   [8]  01 28 29 00 A1 00 00 00
  vcan0  100   [8]  01 27 28 00 9F 00 00 00
  vcan0  100   [8]  01 27 28 00 9D 00 00 00
  vcan0  100   [8]  01 26 28 00 9B 00 00 00
  vcan0  100   [8]  01 26 28 00 99 00 00 00
  vcan0  100   [8]  01 26 28 00 98 00 00 00
  vcan0  100   [8]  01 25 28 00 97 00 00 00
  vcan0  100   [8]  01 25 28 00 96 00 00 00
  vcan0  100   [8]  01 25 28 00 96 00 00 00
  vcan0  100   [8]  01 25 28 00 96 00 00 00
  vcan0  100   [8]  01 25 28 00 96 00 00 00
  vcan0  100   [8]  01 25 28 00 96 00 00 00
  vcan0  100   [8]  01 25 28 00 96 00 00 00
  vcan0  100   [8]  01 25 28 00 97 00 00 00
  vcan0  100   [8]  01 26 28 00 98 00 00 00
  vcan0  100   [8]  01 26 28 00 99 00 00 00
  vcan0  100   [8]  01 26 28 00 9B 00 00 00
  vcan0  100   [8]  01 27 28 00 9C 00 00 00
  vcan0  100   [8]  01 27 28 00 9E 00 00 00
  vcan0  100   [8]  01 28 29 00 A0 00 00 00
  vcan0  100   [8]  01 28 29 00 A3 00 00 00
  vcan0  100   [8]  01 29 29 00 A5 00 00 00
  vcan0  100   [8]  01 2A 29 00 A8 00 00 00
  vcan0  100   [8]  01 2A 2A 00 AB 00 00 00
  vcan0  100   [8]  01 2B 2A 00 AE 00 00 00
  vcan0  100   [8]  01 2C 2A 00 B2 00 00 00
  vcan0  100   [8]  01 2D 2B 00 B5 00 00 00
  vcan0  100   [8]  01 2E 2B 00 B9 00 00 00
  vcan0  100   [8]  01 2F 2B 00 BD 00 00 00
  vcan0  100   [8]  01 30 2C 00 C1 00 00 00
  vcan0  100   [8]  01 31 2C 00 C5 00 00 00
  vcan0  100   [8]  01 32 2D 00 CA 00 00 00
  vcan0  100   [8]  01 33 2D 00 CE 00 00 00
  vcan0  100   [8]  01 34 2E 00 D3 00 00 00
  vcan0  100   [8]  01 35 2E 00 D7 00 00 00
  vcan0  100   [8]  01 37 2F 00 DC 00 00 00
  vcan0  100   [8]  01 38 2F 00 E1 00 00 00
  vcan0  100   [8]  01 39 30 00 E6 00 00 00
  vcan0  100   [8]  01 3A 30 00 EB 00 00 00
  vcan0  100   [8]  01 3C 31 00 F0 00 00 00
  vcan0  100   [8]  01 3D 31 00 F5 00 00 00
  vcan0  100   [8]  01 3E 32 00 FA 00 00 00
  vcan0  100   [8]  01 3F 32 00 FF 00 00 00
  vcan0  100   [8]  01 41 33 01 04 00 00 00
  vcan0  100   [8]  01 42 33 01 08 00 00 00
  vcan0  100   [8]  01 43 33 01 0D 00 00 00
  vcan0  100   [8]  01 44 34 01 12 00 00 00
  vcan0  100   [8]  01 45 34 01 17 00 00 00
  vcan0  100   [8]  01 47 35 01 1C 00 00 00
  vcan0  100   [8]  01 48 35 01 20 00 00 00
  vcan0  100   [8]  01 49 36 01 25 00 00 00
  vcan0  100   [8]  01 4A 36 01 29 00 00 00
  vcan0  100   [8]  01 4B 37 01 2E 00 00 00
  vcan0  100   [8]  01 4C 37 01 32 00 00 00
  vcan0  100   [8]  01 4D 38 01 36 00 00 00
  vcan0  100   [8]  01 4E 38 01 3A 00 00 00
  vcan0  100   [8]  01 4F 38 01 3E 00 00 00
  vcan0  100   [8]  01 50 39 01 41 00 00 00
  vcan0  100   [8]  00 51 39 01 45 00 00 00
  vcan0  100   [8]  00 52 39 01 48 00 00 00
  vcan0  100   [8]  00 52 3A 01 4B 00 00 00
  vcan0  100   [8]  00 53 3A 01 4E 00 00 00
  vcan0  100   [8]  00 54 3A 01 50 00 00 00
  vcan0  100   [8]  00 54 3A 01 53 00 00 00
  vcan0  100   [8]  00 55 3B 01 55 00 00 00
  vcan0  100   [8]  00 55 3B 01 57 00 00 00
  vcan0  100   [8]  00 56 3B 01 58 00 00 00
  vcan0  100   [8]  00 56 3B 01 5A 00 00 00
  vcan0  100   [8]  00 56 3B 01 5B 00 00 00
  vcan0  100   [8]  00 57 3B 01 5C 00 00 00
  vcan0  100   [8]  00 57 3B 01 5D 00 00 00
  vcan0  100   [8]  00 57 3B 01 5D 00 00 00
  vcan0  100   [8]  00 57 3B 01 5D 00 00 00
  vcan0  100   [8]  00 57 3B 01 5D 00 00 00
  vcan0  100   [8]  00 57 3B 01 5D 00 00 00
  vcan0  100   [8]  00 57 3B 01 5D 00 00 00
  vcan0  100   [8]  00 57 3B 01 5C 00 00 00
  vcan0  100   [8]  00 56 3B 01 5B 00 00 00
  vcan0  100   [8]  00 56 3B 01 5A 00 00 00
  vcan0  100   [8]  00 56 3B 01 58 00 00 00
  vcan0  100   [8]  00 55 3B 01 56 00 00 00
  vcan0  100   [8]  00 55 3B 01 54 00 00 00
  vcan0  100   [8]  00 54 3A 01 52 00 00 00
  vcan0  100   [8]  00 54 3A 01 50 00 00 00
  vcan0  100   [8]  00 53 3A 01 4D 00 00 00
  vcan0  100   [8]  00 52 3A 01 4A 00 00 00
  vcan0  100   [8]  00 51 39 01 47 00 00 00
  vcan0  100   [8]  00 51 39 01 44 00 00 00
  vcan0  100   [8]  00 50 39 01 41 00 00 00
  vcan0  100   [8]  00 4F 38 01 3D 00 00 00
  vcan0  100   [8]  00 4E 38 01 39 00 00 00
  vcan0  100   [8]  00 4D 37 01 35 00 00 00
  vcan0  100   [8]  00 4C 37 01 31 00 00 00
  vcan0  100   [8]  00 4B 37 01 2D 00 00 00
  vcan0  100   [8]  00 4A 36 01 29 00 00 00
  vcan0  100   [8]  00 49 36 01 24 00 00 00
  vcan0  100   [8]  00 48 35 01 20 00 00 00
  vcan0  100   [8]  00 46 35 01 1B 00 00 00
  vcan0  100   [8]  00 45 34 01 16 00 00 00
  vcan0  100   [8]  01 44 34 01 11 00 00 00
  vcan0  100   [8]  01 43 33 01 0C 00 00 00
  vcan0  100   [8]  01 42 33 01 08 00 00 00
  vcan0  100   [8]  01 40 32 01 03 00 00 00
  vcan0  100   [8]  01 3F 32 00 FE 00 00 00
  vcan0  100   [8]  01 3E 31 00 F9 00 00 00
  vcan0  100   [8]  01 3D 31 00 F4 00 00 00
  vcan0  100   [8]  01 3B 30 00 EF 00 00 00
  vcan0  100   [8]  01 3A 30 00 EA 00 00 00
  vcan0  100   [8]  01 39 2F 00 E5 00 00 00
  vcan0  100   [8]  01 38 2F 00 E0 00 00 00
  vcan0  100   [8]  01 36 2E 00 DB 00 00 00
  vcan0  100   [8]  01 35 2E 00 D6 00 00 00
  vcan0  100   [8]  01 34 2E 00 D2 00 00 00
  vcan0  100   [8]  01 33 2D 00 CD 00 00 00
  vcan0  100   [8]  01 32 2D 00 C9 00 00 00
  vcan0  100   [8]  01 31 2C 00 C4 00 00 00
  vcan0  100   [8]  01 30 2C 00 C0 00 00 00
  vcan0  100   [8]  01 2F 2B 00 BC 00 00 00
  vcan0  100   [8]  01 2E 2B 00 B8 00 00 00
  vcan0  100   [8]  01 2D 2B 00 B5 00 00 00
  vcan0  100   [8]  01 2C 2A 00 B1 00 00 00
  vcan0  100   [8]  01 2B 2A 00 AE 00 00 00
  vcan0  100   [8]  01 2A 2A 00 AB 00 00 00
  vcan0  100   [8]  01 2A 29 00 A8 00 00 00
  vcan0  100   [8]  01 29 29 00 A5 00 00 00
  vcan0  100   [8]  01 28 29 00 A2 00 00 00
  vcan0  100   [8]  01 28 29 00 A0 00 00 00
  vcan0  100   [8]  01 27 28 00 9E 00 00 00
  vcan0  100   [8]  01 27 28 00 9C 00 00 00
  vcan0  100   [8]  01 26 28 00 9A 00 00 00
  vcan0  100   [8]  01 26 28 00 99 00 00 00
  vcan0  100   [8]  01 26 28 00 98 00 00 00
  vcan0  100   [8]  01 25 28 00 97 00 00 00
  vcan0  100   [8]  01 25 28 00 96 00 00 00
  vcan0  100   [8]  01 25 28 00 96 00 00 00
  vcan0  100   [8]  01 25 28 00 96 00 00 00
  vcan0  100   [8]  01 25 28 00 96 00 00 00
  vcan0  100   [8]  01 25 28 00 96 00 00 00
  vcan0  100   [8]  01 25 28 00 96 00 00 00
  vcan0  100   [8]  01 25 28 00 97 00 00 00
  vcan0  100   [8]  01 26 28 00 98 00 00 00
  vcan0  100   [8]  01 26 28 00 9A 00 00 00
  vcan0  100   [8]  01 26 28 00 9B 00 00 00
  vcan0  100   [8]  01 27 28 00 9D 00 00 00
  vcan0  100   [8]  01 27 28 00 9F 00 00 00
  vcan0  100   [8]  01 28 29 00 A1 00 00 00
  vcan0  100   [8]  01 29 29 00 A4 00 00 00
  vcan0  100   [8]  01 29 29 00 A6 00 00 00
  vcan0  100   [8]  01 2A 29 00 A9 00 00 00
  vcan0  100   [8]  01 2B 2A 00 AC 00 00 00
  vcan0  100   [8]  01 2C 2A 00 B0 00 00 00
  vcan0  100   [8]  01 2C 2A 00 B3 00 00 00
  vcan0  100   [8]  01 2D 2B 00 B7 00 00 00
  vcan0  100   [8]  01 2E 2B 00 BA 00 00 00
  vcan0  100   [8]  01 2F 2C 00 BE 00 00 00
  vcan0  100   [8]  01 30 2C 00 C2 00 00 00
  vcan0  100   [8]  01 31 2C 00 C7 00 00 00
  vcan0  100   [8]  01 32 2D 00 CB 00 00 00
  vcan0  100   [8]  01 34 2D 00 D0 00 00 00
  vcan0  100   [8]  01 35 2E 00 D4 00 00 00
  vcan0  100   [8]  01 36 2E 00 D9 00 00 00
  vcan0  100   [8]  01 37 2F 00 DE 00 00 00
  vcan0  100   [8]  01 38 2F 00 E2 00 00 00
  vcan0  100   [8]  01 39 30 00 E7 00 00 00
  vcan0  100   [8]  01 3B 30 00 EC 00 00 00
  vcan0  100   [8]  01 3C 31 00 F1 00 00 00
  vcan0  100   [8]  01 3D 31 00 F6 00 00 00
  vcan0  100   [8]  01 3E 32 00 FB 00 00 00
  vcan0  100   [8]  01 40 32 01 00 00 00 00
  vcan0  100   [8]  01 41 33 01 05 00 00 00
  vcan0  100   [8]  01 42 33 01 0A 00 00 00
  vcan0  100   [8]  01 43 34 01 0F 00 00 00
  vcan0  100   [8]  01 45 34 01 14 00 00 00
  vcan0  100   [8]  01 46 35 01 19 00 00 00
  vcan0  100   [8]  01 47 35 01 1D 00 00 00
  vcan0  100   [8]  01 48 36 01 22 00 00 00
  vcan0  100   [8]  01 49 36 01 27 00 00 00
  vcan0  100   [8]  01 4A 36 01 2B 00 00 00
  vcan0  100   [8]  01 4B 37 01 2F 00 00 00
  vcan0  100   [8]  01 4C 37 01 33 00 00 00
  vcan0  100   [8]  01 4D 38 01 37 00 00 00
  vcan0  100   [8]  01 4E 38 01 3B 00 00 00
  vcan0  100   [8]  01 4F 38 01 3F 00 00 00
  vcan0  100   [8]  01 50 39 01 42 00 00 00
  vcan0  100   [8]  00 51 39 01 46 00 00 00
  vcan0  100   [8]  00 52 39 01 49 00 00 00
  vcan0  100   [8]  00 53 3A 01 4C 00 00 00
  vcan0  100   [8]  00 53 3A 01 4F 00 00 00
  vcan0  100   [8]  00 54 3A 01 51 00 00 00
  vcan0  100   [8]  00 54 3A 01 53 00 00 00
  vcan0  100   [8]  00 55 3B 01 55 00 00 00
  vcan0  100   [8]  00 55 3B 01 57 00 00 00
  vcan0  100   [8]  00 56 3B 01 59 00 00 00
  vcan0  100   [8]  00 56 3B 01 5A 00 00 00
  vcan0  100   [8]  00 56 3B 01 5B 00 00 00
  vcan0  100   [8]  00 57 3B 01 5C 00 00 00
  vcan0  100   [8]  00 57 3B 01 5D 00 00 00
  vcan0  100   [8]  00 57 3B 01 5D 00 00 00
  vcan0  100   [8]  00 57 3B 01 5D 00 00 00
  vcan0  100   [8]  00 57 3B 01 5D 00 00 00
  vcan0  100   [8]  00 57 3B 01 5D 00 00 00
  vcan0  100   [8]  00 57 3B 01 5C 00 00 00
  vcan0  100   [8]  00 57 3B 01 5C 00 00 00
  vcan0  100   [8]  00 56 3B 01 5A 00 00 00
  vcan0  100   [8]  00 56 3B 01 59 00 00 00
  vcan0  100   [8]  00 56 3B 01 58 00 00 00
  vcan0  100   [8]  00 55 3B 01 56 00 00 00
  vcan0  100   [8]  00 55 3B 01 54 00 00 00
  vcan0  100   [8]  00 54 3A 01 51 00 00 00
  vcan0  100   [8]  00 53 3A 01 4F 00 00 00
  vcan0  100   [8]  00 53 3A 01 4C 00 00 00
  vcan0  100   [8]  00 52 39 01 49 00 00 00
  vcan0  100   [8]  00 51 39 01 46 00 00 00
  vcan0  100   [8]  00 50 39 01 43 00 00 00
  vcan0  100   [8]  00 4F 38 01 3F 00 00 00
  vcan0  100   [8]  00 4F 38 01 3C 00 00 00
  vcan0  100   [8]  00 4E 38 01 38 00 00 00
  vcan0  100   [8]  00 4D 37 01 34 00 00 00
  vcan0  100   [8]  00 4C 37 01 30 00 00 00
  vcan0  100   [8]  00 4B 37 01 2C 00 00 00
  vcan0  100   [8]  00 49 36 01 27 00 00 00
  vcan0  100   [8]  00 48 36 01 23 00 00 00
  vcan0  100   [8]  00 47 35 01 1E 00 00 00
  vcan0  100   [8]  00 46 35 01 19 00 00 00
  vcan0  100   [8]  00 45 34 01 15 00 00 00
  vcan0  100   [8]  01 44 34 01 10 00 00 00
  vcan0  100   [8]  01 42 33 01 0B 00 00 00
  vcan0  100   [8]  01 41 33 01 06 00 00 00
  vcan0  100   [8]  01 40 32 01 01 00 00 00
  vcan0  100   [8]  01 3F 32 00 FC 00 00 00
  vcan0  100   [8]  01 3D 31 00 F7 00 00 00
  vcan0  100   [8]  01 3C 31 00 F2 00 00 00
